
**** 01/22/18 10:43:47 *********** Evaluation PSpice (Nov 1999) **************

 * C:\Users\telep\Documents\Documents\ECL\1A\UEs\STI\tc0\Elec\2_NMOS_AMP\AMP.sch


 ****     CIRCUIT DESCRIPTION


******************************************************************************




* Schematics Version 9.1 - Web Update 1
* Sun Jan 21 10:44:42 2018



** Analysis setup **
.tran 1us 10ms 0 1us
.OP 


* From [PSPICE NETLIST] section of pspiceev.ini:
.lib "C:\Program Files\OrCAD_Demo\PSpice\Library\eea.lib"
.lib "nom.lib"

.INC "AMP.net"

**** INCLUDING AMP.net ****
* Schematics Netlist *



R_R1         vout $N_0001  3k  
V_V2         $N_0001 0 2.5V
M_M1         vout vin 0 0 NMOS5  
+ L=0.25um  
+ W=5um         
V_V1         vin 0 DC 1V AC 1V
+SIN 1.25V 200mV 2k 0 0 0

**** RESUMING AMP.cir ****
.INC "AMP.als"



**** INCLUDING AMP.als ****
* Schematics Aliases *

.ALIASES
R_R1            R1(1=vout 2=$N_0001 )
V_V2            V2(+=$N_0001 -=0 )
M_M1            M1(d=vout g=vin s=0 s=0 )
V_V1            V1(+=vin -=0 )
_    _(vout=vout)
_    _(vin=vin)
.ENDALIASES


**** RESUMING AMP.cir ****
.probe


.END

**** 01/22/18 10:43:47 *********** Evaluation PSpice (Nov 1999) **************

 * C:\Users\telep\Documents\Documents\ECL\1A\UEs\STI\tc0\Elec\2_NMOS_AMP\AMP.sch


 ****     MOSFET MODEL PARAMETERS


******************************************************************************




               NMOS5           
               NMOS            
  T_Measured   27            
   T_Current   27            
       LEVEL    5            
           L  250.000000E-09 
           W   10.000000E-06 
          LD  -80.000000E-09 
          WD  -20.000000E-09 
         VTO     .4          
          KP  131.000000E-06 
       GAMMA     .5          
         PHI     .7          
      LAMBDA     .1          
         RSH  510            
          IS   10.000000E-15 
          JS   10.000000E-09 
        JSSW  150.000000E-12 
           N    1.5          
          PB     .9          
        PBSW     .5          
          CJ  560.000000E-06 
        CJSW  350.000000E-12 
          MJ     .45         
        MJSW     .2          
        CGSO  150.000000E-12 
        CGDO  400.000000E-12 
        CGBO  400.000000E-12 
         TOX  100.000000E-09 
          XJ  150.000000E-09 
       UCRIT    4.500000E+06 
          KF    1.000000E-27 
      DIOMOD    1            
         VFB    0            
        LETA     .28         
        WETA     .05         
          U0    0            
        TEMP    0            
         VDD    0            
       XPART    0            
         XTI    0            
        HDIF  900.000000E-09 
         COX    4.000000E-03 
          E0   50.000000E+06 
         IBA  200.000000E+06 
         IBB  350.000000E+06 
         TCV    1.500000E-03 
        UCEX    1.7          
        IBBT    0            
          Q0  280.000000E-06 
          LK  500.000000E-09 


**** 01/22/18 10:43:47 *********** Evaluation PSpice (Nov 1999) **************

 * C:\Users\telep\Documents\Documents\ECL\1A\UEs\STI\tc0\Elec\2_NMOS_AMP\AMP.sch


 ****     SMALL SIGNAL BIAS SOLUTION       TEMPERATURE =   27.000 DEG C


******************************************************************************



 NODE   VOLTAGE     NODE   VOLTAGE     NODE   VOLTAGE     NODE   VOLTAGE


(  vin)    1.0000  ( vout)    1.7809  ($N_0001)    2.5000                   




    VOLTAGE SOURCE CURRENTS
    NAME         CURRENT

    V_V2        -2.397E-04
    V_V1         0.000E+00

    TOTAL POWER DISSIPATION   5.99E-04  WATTS


**** 01/22/18 10:43:47 *********** Evaluation PSpice (Nov 1999) **************

 * C:\Users\telep\Documents\Documents\ECL\1A\UEs\STI\tc0\Elec\2_NMOS_AMP\AMP.sch


 ****     OPERATING POINT INFORMATION      TEMPERATURE =   27.000 DEG C


******************************************************************************






**** MOSFETS


NAME         M_M1      
MODEL        NMOS5     
ID           2.40E-04 
VGS          1.00E+00 
VDS          1.78E+00 
VBS          0.00E+00 
VTH          5.28E-01 
VDSAT        5.20E-01 
Lin0/Sat1    1.00E+00 
if           6.49E+01 
ir           1.94E-22 
TAU          8.76E-13 
GM           7.42E-04 
GDS          1.45E-05 
GMB          1.56E-04 
CBD          6.62E-15 
CBS          9.70E-15 
CGSOV        7.56E-16 
CGDOV        2.02E-15 
CGBOV        1.64E-16 
CGS          1.27E-15 
CGD          8.22E-16 
CGB          2.25E-16 
**** 01/22/18 10:43:47 *********** Evaluation PSpice (Nov 1999) **************

 * C:\Users\telep\Documents\Documents\ECL\1A\UEs\STI\tc0\Elec\2_NMOS_AMP\AMP.sch


 ****     INITIAL TRANSIENT SOLUTION       TEMPERATURE =   27.000 DEG C


******************************************************************************



 NODE   VOLTAGE     NODE   VOLTAGE     NODE   VOLTAGE     NODE   VOLTAGE


(  vin)    1.2500  ( vout)    1.2838  ($N_0001)    2.5000                   




    VOLTAGE SOURCE CURRENTS
    NAME         CURRENT

    V_V2        -4.054E-04
    V_V1         0.000E+00

    TOTAL POWER DISSIPATION   1.01E-03  WATTS



          JOB CONCLUDED

          TOTAL JOB TIME             .39
